Logging started @ 2025-09-01 02:56
DLL version: V8.60 , Compiled: Aug 13 2025 12:08:34
T42B4 003:780.601   Firmware: J-Link V11 compiled Apr  1 2025 10:02:30
T42B4 003:782.215   Firmware: J-Link V11 compiled Apr  1 2025 10:02:30
T42B4 003:803.210   Hardware: V11.00
T42B4 003:803.260   S/N: 601002656
T42B4 003:803.271   OEM: SEGGER
T42B4 003:803.283   Feature(s): RDI, FlashBP, FlashDL, JFlash, GDB
T42B4 003:805.019   Bootloader: 2019 Jul 04
T42B4 003:805.872   USB speed mode: High speed (480 MBit/s)
T42B4 003:806.344   TELNET listener socket opened on port 19021
T42B4 003:806.455   WEBSRV WEBSRV_Init(): Starting webserver thread(s)
T42B4 003:806.655   WEBSRV Webserver running on local port 19080
T42B4 003:806.830   Looking for J-Link GUI Server exe at: D:\ProgramFiles\IAR Systems\Embedded Workbench 9.1\arm\bin\JLinkGUIServer.exe
T42B4 003:806.921   Looking for J-Link GUI Server exe at: D:\ProgramFiles\SEGGER\JLink_V860\JLinkGUIServer.exe
T42B4 003:806.943   Forking J-Link GUI Server: D:\ProgramFiles\SEGGER\JLink_V860\JLinkGUIServer.exe
T42B4 003:838.368   J-Link GUI Server info: "J-Link GUI server V8.60 "
T42B4 003:840.813 - 64.816ms returns "O.K."
T42B4 003:841.569 JLINK_ExecCommand("ProjectFile = D:\02_ESTec\01_PRJ\07_HKMC\02_AVAS_Car_Test_Sample\03_Source\02_SDL\01_Working\tviibh4m\tools\iar\sram\cm0plus\settings\cm0plus_rev_b.jlink", ...). 
T42B4 003:854.820   Ref file found at: D:\ProgramFiles\IAR Systems\Embedded Workbench 9.1\arm\bin\JLinkDevices.ref
T42B4 003:854.984   REF file references invalid XML file: D:\ProgramFiles\SEGGER\JLink_V860\JLinkDevices.xml
T42B4 003:855.957 - 14.372ms returns 0x00
T42B4 003:856.270 JLINK_ExecCommand("device = CYT3BB_M0+", ...). 
T42B4 003:856.877   Flash bank @ 0x10000000: SFL: Parsing sectorization info from ELF file
T42B4 003:856.906     FlashDevice.SectorInfo[0]: .SectorSize = 0x00008000, .SectorStartAddr = 0x00000000
T42B4 003:856.919     FlashDevice.SectorInfo[1]: .SectorSize = 0x00002000, .SectorStartAddr = 0x001F0000
T42B4 003:856.931   FlashBank @0x10000000: Sectorization info from SFL ELF file ignored because sectorization override from DLL / XML file is active.
T42B4 003:857.291   Flash bank @ 0x14000000: SFL: Parsing sectorization info from ELF file
T42B4 003:857.317     FlashDevice.SectorInfo[0]: .SectorSize = 0x00000800, .SectorStartAddr = 0x00000000
T42B4 003:857.330     FlashDevice.SectorInfo[1]: .SectorSize = 0x00000080, .SectorStartAddr = 0x00018000
T42B4 003:857.342   FlashBank @0x14000000: Sectorization info from SFL ELF file ignored because sectorization override from DLL / XML file is active.
T42B4 003:857.476   Flash bank @ 0x10000000: SFL: Parsing sectorization info from ELF file
T42B4 003:857.490     FlashDevice.SectorInfo[0]: .SectorSize = 0x00000200, .SectorStartAddr = 0x17000800
T42B4 003:857.502   FlashBank @0x17000800: Sectorization info from SFL ELF file ignored because sectorization override from DLL / XML file is active.
T42B4 003:857.558   Device "CYT3BBBCEB_M0" selected.
T42B4 003:857.965 - 1.671ms returns 0x00
T42B4 003:857.996 JLINK_ExecCommand("CORESIGHT_SetMTBBaseAddr 0xf0003000", ...). 
T42B4 003:858.014 - 0.003ms returns 0x00
T42B4 003:858.026 JLINK_GetDLLVersion()
T42B4 003:858.038 - 0.011ms returns 86000
T42B4 003:858.064 JLINK_GetCompileDateTime()
T42B4 003:858.076 - 0.012ms 
T42B4 003:858.128 JLINK_GetFirmwareString(...)
T42B4 003:858.141 - 0.013ms 
T42B4 003:858.170 JLINK_TIF_Select(JLINKARM_TIF_SWD)
T42B4 003:859.192 - 1.024ms returns 0x00
T42B4 003:859.233 JLINK_EMU_GetProductId()
T42B4 003:859.248 - 0.015ms 
T42B4 003:859.261 JLINK_SelectDeviceFamily(6)
T42B4 003:859.274 - 0.013ms 
T42B4 003:859.304 JLINK_SetSpeed(1000)
T42B4 003:859.532 - 0.227ms 
T42B4 003:859.563 JLINK_SetResetType(JLINKARM_RESET_TYPE_NORMAL)
T42B4 003:859.576 - 0.013ms returns JLINKARM_RESET_TYPE_NORMAL
T42B4 003:859.589 JLINK_ExecCommand("SetResetPulseLen = 200", ...). 
T42B4 003:859.607 - 0.004ms returns 0x14
T42B4 003:859.620 JLINK_SetResetDelay(0)
T42B4 003:859.632 - 0.011ms 
T42B4 003:859.644 JLINK_ResetPullsRESET(ON)
T42B4 003:859.689 - 0.045ms 
T42B4 003:859.705 JLINK_Reset()
T42B4 003:860.052   ConfigTargetSettings() start
T42B4 003:860.069    J-Link Script File: Executing ConfigTargetSettings()
T42B4 003:860.114   Disabling optimizations:
 - Compare
 - SkipBlankDataOnProg
 - Flash breakpoints
T42B4 003:868.717   ConfigTargetSettings() end - Took 8.57ms
T42B4 003:869.742   Found SW-DP with ID 0x6BA02477
T42B4 003:873.180   DPIDR: 0x6BA02477
T42B4 003:873.224   CoreSight SoC-400 or earlier
T42B4 003:873.255   AP map detection skipped. Manually configured AP map found.
T42B4 003:873.280   AP[0]: APB-AP (IDR: Not set, ADDR: 0x00000000)
T42B4 003:873.302   AP[1]: AHB-AP (IDR: Not set, ADDR: 0x00000000)
T42B4 003:873.325   AP[2]: AHB-AP (IDR: Not set, ADDR: 0x00000000)
T42B4 003:873.347   AP[3]: AHB-AP (IDR: Not set, ADDR: 0x00000000)
T42B4 003:874.333   AP[1]: Core found
T42B4 003:874.406   AP[1]: AHB-AP ROM base: 0xF0000000
T42B4 003:874.986   CPUID register: 0x410CC601. Implementer code: 0x41 (ARM)
T42B4 003:875.014   Found Cortex-M0 r0p1, Little endian.
T42B4 003:875.558   -- Max. mem block: 0x00005CF8
T42B4 003:876.106   CPU_ReadMem(4 bytes @ 0xE000EDF0)
T42B4 003:876.724   CPU_WriteMem(4 bytes @ 0xE000EDF0)
T42B4 003:877.314   CPU_ReadMem(4 bytes @ 0xE0002000)
T42B4 003:877.946   FPUnit: 4 code (BP) slots and 0 literal slots
T42B4 003:877.962   CPU_ReadMem(4 bytes @ 0xE000EDFC)
T42B4 003:878.519   CPU_WriteMem(4 bytes @ 0xE000EDFC)
T42B4 003:879.144   CPU_ReadMem(4 bytes @ 0xE0001000)
T42B4 003:879.774   CPU_WriteMem(4 bytes @ 0xE0001000)
T42B4 003:880.496   CoreSight components:
T42B4 003:880.532   ROMTbl[0] @ F0000000
T42B4 003:880.546   CPU_ReadMem(64 bytes @ 0xF0000000)
T42B4 003:882.025   CPU_ReadMem(32 bytes @ 0xE00FFFE0)
T42B4 003:883.101   [0][0]: E00FF000 CID B105100D PID 000BB4C0 ROM Table
T42B4 003:883.137   ROMTbl[1] @ E00FF000
T42B4 003:883.151   CPU_ReadMem(64 bytes @ 0xE00FF000)
T42B4 003:884.723   CPU_ReadMem(32 bytes @ 0xE000EFE0)
T42B4 003:885.736   [1][0]: E000E000 CID B105E00D PID 000BB008 SCS
T42B4 003:885.751   CPU_ReadMem(32 bytes @ 0xE0001FE0)
T42B4 003:886.766   [1][1]: E0001000 CID B105E00D PID 000BB00A DWT
T42B4 003:886.780   CPU_ReadMem(32 bytes @ 0xE0002FE0)
T42B4 003:887.861   [1][2]: E0002000 CID B105E00D PID 000BB00B FPB
T42B4 003:887.884   CPU_ReadMem(32 bytes @ 0xF0002FE0)
T42B4 003:888.850   [0][1]: F0002000 CID B105900D PID 005BB906 CTI
T42B4 003:888.866   CPU_ReadMem(32 bytes @ 0xF0003FE0)
T42B4 003:889.866   [0][2]: F0003000 CID B105900D PID 001BB932 MTB-M0+
T42B4 003:889.914   JLINK_GetResetTypeDesc
T42B4 003:889.927   - 0.013ms 
T42B4 003:889.952   Reset type: NORMAL (https://wiki.segger.com/J-Link_Reset_Strategies)
T42B4 003:889.968   CPU is running
T42B4 003:889.981   CPU_WriteMem(4 bytes @ 0xE000EDF0)
T42B4 003:890.682   CPU is running
T42B4 003:890.696   CPU_WriteMem(4 bytes @ 0xE000EDFC)
T42B4 003:891.340   Reset: Halt core after reset via DEMCR.VC_CORERESET.
T42B4 003:891.915   Reset: Reset device via AIRCR.SYSRESETREQ.
T42B4 003:891.931   CPU is running
T42B4 003:891.943   CPU_WriteMem(4 bytes @ 0xE000ED0C)
T42B4 004:047.049   CPU_ReadMem(4 bytes @ 0xE000EDF0)
T42B4 004:047.799   CPU_ReadMem(4 bytes @ 0xE000EDF0)
T42B4 004:049.258   Core did not halt after reset, halting it manually.
T42B4 004:049.295   CPU is running
T42B4 004:049.309   CPU_WriteMem(4 bytes @ 0xE000EDF0)
T42B4 004:049.869   CPU is running
T42B4 004:049.893   CPU_WriteMem(4 bytes @ 0xE000EDFC)
T42B4 004:056.945   CPU_ReadMem(4 bytes @ 0xE000EDF0)
T42B4 004:064.124   CPU_WriteMem(4 bytes @ 0xE0002000)
T42B4 004:064.766   CPU_ReadMem(4 bytes @ 0xE000EDFC)
T42B4 004:065.368   CPU_ReadMem(4 bytes @ 0xE0001000)
T42B4 004:065.950   CPU_WriteMem(4 bytes @ 0xE0001000)
T42B4 004:066.564 - 206.858ms 
T42B4 004:066.656 JLINK_IsHalted()
T42B4 004:066.673 - 0.016ms returns TRUE
T42B4 004:066.686 JLINK_Halt()
T42B4 004:066.698 - 0.011ms returns 0x00
T42B4 004:067.652 JLINK_ReadMemU32(0xE000ED00, 0x1 Items)
T42B4 004:067.697   CPU_ReadMem(4 bytes @ 0xE000ED00)
T42B4 004:068.544   Data:  01 C6 0C 41
T42B4 004:068.577   Debug reg: CPUID
T42B4 004:068.590 - 0.937ms returns 1 (0x1)
T42B4 004:068.613 JLINK_ReadMemU32(0xE00FF000, 0x1 Items)
T42B4 004:068.630   CPU_ReadMem(4 bytes @ 0xE00FF000)
T42B4 004:069.191   Data:  03 F0 F0 FF
T42B4 004:069.214 - 0.600ms returns 1 (0x1)
T42B4 004:069.230 JLINK_ReadMemU32(0xE00FF004, 0x1 Items)
T42B4 004:069.245   CPU_ReadMem(4 bytes @ 0xE00FF004)
T42B4 004:069.807   Data:  03 20 F0 FF
T42B4 004:069.848 - 0.617ms returns 1 (0x1)
T42B4 004:069.868 JLINK_ReadMemU32(0xE00FF008, 0x1 Items)
T42B4 004:069.884   CPU_ReadMem(4 bytes @ 0xE00FF008)
T42B4 004:070.595   Data:  03 30 F0 FF
T42B4 004:070.625 - 0.756ms returns 1 (0x1)
T42B4 004:070.641 JLINK_ReadMemU32(0xE00FF00C, 0x1 Items)
T42B4 004:070.656   CPU_ReadMem(4 bytes @ 0xE00FF00C)
T42B4 004:071.368   Data:  00 00 00 00
T42B4 004:071.384 - 0.742ms returns 1 (0x1)
T42B4 004:071.398 JLINK_ReadMemU32(0xE00FFFD0, 0x1 Items)
T42B4 004:071.412   CPU_ReadMem(4 bytes @ 0xE00FFFD0)
T42B4 004:072.125   Data:  04 00 00 00
T42B4 004:072.140 - 0.742ms returns 1 (0x1)
T42B4 004:072.156 JLINK_ReadMemU32(0xE00FFFD4, 0x1 Items)
T42B4 004:072.168   CPU_ReadMem(4 bytes @ 0xE00FFFD4)
T42B4 004:072.869   Data:  00 00 00 00
T42B4 004:072.884 - 0.728ms returns 1 (0x1)
T42B4 004:072.897 JLINK_ReadMemU32(0xE00FFFD8, 0x1 Items)
T42B4 004:072.910   CPU_ReadMem(4 bytes @ 0xE00FFFD8)
T42B4 004:073.622   Data:  00 00 00 00
T42B4 004:073.636 - 0.738ms returns 1 (0x1)
T42B4 004:073.650 JLINK_ReadMemU32(0xE00FFFDC, 0x1 Items)
T42B4 004:073.663   CPU_ReadMem(4 bytes @ 0xE00FFFDC)
T42B4 004:074.354   Data:  00 00 00 00
T42B4 004:074.368 - 0.718ms returns 1 (0x1)
T42B4 004:074.382 JLINK_ReadMemU32(0xE00FFFE0, 0x1 Items)
T42B4 004:074.395   CPU_ReadMem(4 bytes @ 0xE00FFFE0)
T42B4 004:075.100   Data:  C0 00 00 00
T42B4 004:075.114 - 0.732ms returns 1 (0x1)
T42B4 004:075.128 JLINK_ReadMemU32(0xE00FFFE4, 0x1 Items)
T42B4 004:075.141   CPU_ReadMem(4 bytes @ 0xE00FFFE4)
T42B4 004:075.810   Data:  B4 00 00 00
T42B4 004:075.824 - 0.696ms returns 1 (0x1)
T42B4 004:075.838 JLINK_ReadMemU32(0xE00FFFE8, 0x1 Items)
T42B4 004:075.851   CPU_ReadMem(4 bytes @ 0xE00FFFE8)
T42B4 004:076.436   Data:  0B 00 00 00
T42B4 004:076.450 - 0.612ms returns 1 (0x1)
T42B4 004:076.464 JLINK_ReadMemU32(0xE00FFFEC, 0x1 Items)
T42B4 004:076.476   CPU_ReadMem(4 bytes @ 0xE00FFFEC)
T42B4 004:077.188   Data:  00 00 00 00
T42B4 004:077.202 - 0.737ms returns 1 (0x1)
T42B4 004:077.215 JLINK_ReadMemU32(0xE00FFFF0, 0x1 Items)
T42B4 004:077.228   CPU_ReadMem(4 bytes @ 0xE00FFFF0)
T42B4 004:077.788   Data:  0D 00 00 00
T42B4 004:077.803 - 0.588ms returns 1 (0x1)
T42B4 004:077.816 JLINK_ReadMemU32(0xE00FFFF4, 0x1 Items)
T42B4 004:077.829   CPU_ReadMem(4 bytes @ 0xE00FFFF4)
T42B4 004:078.536   Data:  10 00 00 00
T42B4 004:078.550 - 0.733ms returns 1 (0x1)
T42B4 004:078.564 JLINK_ReadMemU32(0xE00FFFF8, 0x1 Items)
T42B4 004:078.576   CPU_ReadMem(4 bytes @ 0xE00FFFF8)
T42B4 004:079.285   Data:  05 00 00 00
T42B4 004:079.300 - 0.736ms returns 1 (0x1)
T42B4 004:079.313 JLINK_ReadMemU32(0xE00FFFFC, 0x1 Items)
T42B4 004:079.326   CPU_ReadMem(4 bytes @ 0xE00FFFFC)
T42B4 004:080.023   Data:  B1 00 00 00
T42B4 004:080.043 - 0.729ms returns 1 (0x1)
T42B4 004:080.057 JLINK_ReadMemU32(0xE000EFD0, 0x1 Items)
T42B4 004:080.071   CPU_ReadMem(4 bytes @ 0xE000EFD0)
T42B4 004:080.652   Data:  04 00 00 00
T42B4 004:080.684 - 0.626ms returns 1 (0x1)
T42B4 004:080.700 JLINK_ReadMemU32(0xE000EFD4, 0x1 Items)
T42B4 004:080.716   CPU_ReadMem(4 bytes @ 0xE000EFD4)
T42B4 004:081.399   Data:  00 00 00 00
T42B4 004:081.414 - 0.713ms returns 1 (0x1)
T42B4 004:081.428 JLINK_ReadMemU32(0xE000EFD8, 0x1 Items)
T42B4 004:081.441   CPU_ReadMem(4 bytes @ 0xE000EFD8)
T42B4 004:082.140   Data:  00 00 00 00
T42B4 004:082.155 - 0.727ms returns 1 (0x1)
T42B4 004:082.169 JLINK_ReadMemU32(0xE000EFDC, 0x1 Items)
T42B4 004:082.182   CPU_ReadMem(4 bytes @ 0xE000EFDC)
T42B4 004:082.840   Data:  00 00 00 00
T42B4 004:082.864 - 0.694ms returns 1 (0x1)
T42B4 004:082.883 JLINK_ReadMemU32(0xE000EFE0, 0x1 Items)
T42B4 004:082.900   CPU_ReadMem(4 bytes @ 0xE000EFE0)
T42B4 004:083.486   Data:  08 00 00 00
T42B4 004:083.500 - 0.617ms returns 1 (0x1)
T42B4 004:083.514 JLINK_ReadMemU32(0xE000EFE4, 0x1 Items)
T42B4 004:083.527   CPU_ReadMem(4 bytes @ 0xE000EFE4)
T42B4 004:084.094   Data:  B0 00 00 00
T42B4 004:084.108 - 0.593ms returns 1 (0x1)
T42B4 004:084.121 JLINK_ReadMemU32(0xE000EFE8, 0x1 Items)
T42B4 004:084.134   CPU_ReadMem(4 bytes @ 0xE000EFE8)
T42B4 004:084.827   Data:  0B 00 00 00
T42B4 004:084.841 - 0.719ms returns 1 (0x1)
T42B4 004:084.854 JLINK_ReadMemU32(0xE000EFEC, 0x1 Items)
T42B4 004:084.867   CPU_ReadMem(4 bytes @ 0xE000EFEC)
T42B4 004:085.459   Data:  00 00 00 00
T42B4 004:085.474 - 0.619ms returns 1 (0x1)
T42B4 004:085.487 JLINK_ReadMemU32(0xE000EFF0, 0x1 Items)
T42B4 004:085.500   CPU_ReadMem(4 bytes @ 0xE000EFF0)
T42B4 004:086.236   Data:  0D 00 00 00
T42B4 004:086.251 - 0.763ms returns 1 (0x1)
T42B4 004:086.264 JLINK_ReadMemU32(0xE000EFF4, 0x1 Items)
T42B4 004:086.277   CPU_ReadMem(4 bytes @ 0xE000EFF4)
T42B4 004:086.936   Data:  E0 00 00 00
T42B4 004:086.950 - 0.685ms returns 1 (0x1)
T42B4 004:086.963 JLINK_ReadMemU32(0xE000EFF8, 0x1 Items)
T42B4 004:086.976   CPU_ReadMem(4 bytes @ 0xE000EFF8)
T42B4 004:087.713   Data:  05 00 00 00
T42B4 004:087.728 - 0.764ms returns 1 (0x1)
T42B4 004:087.741 JLINK_ReadMemU32(0xE000EFFC, 0x1 Items)
T42B4 004:087.755   CPU_ReadMem(4 bytes @ 0xE000EFFC)
T42B4 004:088.414   Data:  B1 00 00 00
T42B4 004:088.428 - 0.687ms returns 1 (0x1)
T42B4 004:088.442 JLINK_ReadMemU32(0xE0001FD0, 0x1 Items)
T42B4 004:088.455   CPU_ReadMem(4 bytes @ 0xE0001FD0)
T42B4 004:089.056   Data:  04 00 00 00
T42B4 004:089.070   Debug reg: DWT_PID4
T42B4 004:089.082 - 0.639ms returns 1 (0x1)
T42B4 004:089.094 JLINK_ReadMemU32(0xE0001FD4, 0x1 Items)
T42B4 004:089.107   CPU_ReadMem(4 bytes @ 0xE0001FD4)
T42B4 004:089.789   Data:  00 00 00 00
T42B4 004:089.804   Debug reg: DWT_PID5
T42B4 004:089.815 - 0.720ms returns 1 (0x1)
T42B4 004:089.828 JLINK_ReadMemU32(0xE0001FD8, 0x1 Items)
T42B4 004:089.842   CPU_ReadMem(4 bytes @ 0xE0001FD8)
T42B4 004:090.484   Data:  00 00 00 00
T42B4 004:090.508   Debug reg: DWT_PID6
T42B4 004:090.520 - 0.691ms returns 1 (0x1)
T42B4 004:090.534 JLINK_ReadMemU32(0xE0001FDC, 0x1 Items)
T42B4 004:090.548   CPU_ReadMem(4 bytes @ 0xE0001FDC)
T42B4 004:091.153   Data:  00 00 00 00
T42B4 004:091.170   Debug reg: DWT_PID7
T42B4 004:091.183 - 0.648ms returns 1 (0x1)
T42B4 004:091.201 JLINK_ReadMemU32(0xE0001FE0, 0x1 Items)
T42B4 004:091.214   CPU_ReadMem(4 bytes @ 0xE0001FE0)
T42B4 004:091.890   Data:  0A 00 00 00
T42B4 004:091.905   Debug reg: DWT_PID[0]
T42B4 004:091.917 - 0.716ms returns 1 (0x1)
T42B4 004:091.934 JLINK_ReadMemU32(0xE0001FE4, 0x1 Items)
T42B4 004:091.948   CPU_ReadMem(4 bytes @ 0xE0001FE4)
T42B4 004:092.628   Data:  B0 00 00 00
T42B4 004:092.642   Debug reg: DWT_PID[1]
T42B4 004:092.653 - 0.719ms returns 1 (0x1)
T42B4 004:092.669 JLINK_ReadMemU32(0xE0001FE8, 0x1 Items)
T42B4 004:092.683   CPU_ReadMem(4 bytes @ 0xE0001FE8)
T42B4 004:093.406   Data:  0B 00 00 00
T42B4 004:093.420   Debug reg: DWT_PID[2]
T42B4 004:093.432 - 0.762ms returns 1 (0x1)
T42B4 004:093.447 JLINK_ReadMemU32(0xE0001FEC, 0x1 Items)
T42B4 004:093.460   CPU_ReadMem(4 bytes @ 0xE0001FEC)
T42B4 004:094.143   Data:  00 00 00 00
T42B4 004:094.157   Debug reg: DWT_PID[3]
T42B4 004:094.169 - 0.722ms returns 1 (0x1)
T42B4 004:094.184 JLINK_ReadMemU32(0xE0001FF0, 0x1 Items)
T42B4 004:094.198   CPU_ReadMem(4 bytes @ 0xE0001FF0)
T42B4 004:094.872   Data:  0D 00 00 00
T42B4 004:094.887   Debug reg: DWT_CID[0]
T42B4 004:094.899 - 0.714ms returns 1 (0x1)
T42B4 004:094.914 JLINK_ReadMemU32(0xE0001FF4, 0x1 Items)
T42B4 004:094.928   CPU_ReadMem(4 bytes @ 0xE0001FF4)
T42B4 004:095.644   Data:  E0 00 00 00
T42B4 004:095.658   Debug reg: DWT_CID[1]
T42B4 004:095.670 - 0.755ms returns 1 (0x1)
T42B4 004:095.685 JLINK_ReadMemU32(0xE0001FF8, 0x1 Items)
T42B4 004:095.698   CPU_ReadMem(4 bytes @ 0xE0001FF8)
T42B4 004:096.376   Data:  05 00 00 00
T42B4 004:096.392   Debug reg: DWT_CID[2]
T42B4 004:096.403 - 0.718ms returns 1 (0x1)
T42B4 004:096.448 JLINK_ReadMemU32(0xE0001FFC, 0x1 Items)
T42B4 004:096.463   CPU_ReadMem(4 bytes @ 0xE0001FFC)
T42B4 004:097.142   Data:  B1 00 00 00
T42B4 004:097.156   Debug reg: DWT_CID[3]
T42B4 004:097.168 - 0.720ms returns 1 (0x1)
T42B4 004:097.181 JLINK_ReadMemU32(0xE0002FD0, 0x1 Items)
T42B4 004:097.194   CPU_ReadMem(4 bytes @ 0xE0002FD0)
T42B4 004:097.888   Data:  04 00 00 00
T42B4 004:097.909   Debug reg: FP_PID4
T42B4 004:097.925 - 0.743ms returns 1 (0x1)
T42B4 004:097.945 JLINK_ReadMemU32(0xE0002FD4, 0x1 Items)
T42B4 004:097.965   CPU_ReadMem(4 bytes @ 0xE0002FD4)
T42B4 004:098.632   Data:  00 00 00 00
T42B4 004:098.652   Debug reg: FP_PID5
T42B4 004:098.664 - 0.719ms returns 1 (0x1)
T42B4 004:098.678 JLINK_ReadMemU32(0xE0002FD8, 0x1 Items)
T42B4 004:098.692   CPU_ReadMem(4 bytes @ 0xE0002FD8)
T42B4 004:099.372   Data:  00 00 00 00
T42B4 004:099.388   Debug reg: FP_PID6
T42B4 004:099.399 - 0.721ms returns 1 (0x1)
T42B4 004:099.412 JLINK_ReadMemU32(0xE0002FDC, 0x1 Items)
T42B4 004:099.426   CPU_ReadMem(4 bytes @ 0xE0002FDC)
T42B4 004:100.074   Data:  00 00 00 00
T42B4 004:100.098   Debug reg: FP_PID7
T42B4 004:100.110 - 0.697ms returns 1 (0x1)
T42B4 004:100.125 JLINK_ReadMemU32(0xE0002FE0, 0x1 Items)
T42B4 004:100.139   CPU_ReadMem(4 bytes @ 0xE0002FE0)
T42B4 004:100.736   Data:  0B 00 00 00
T42B4 004:100.750   Debug reg: FP_PID[0]
T42B4 004:100.762 - 0.637ms returns 1 (0x1)
T42B4 004:100.776 JLINK_ReadMemU32(0xE0002FE4, 0x1 Items)
T42B4 004:100.789   CPU_ReadMem(4 bytes @ 0xE0002FE4)
T42B4 004:101.485   Data:  B0 00 00 00
T42B4 004:101.499   Debug reg: FP_PID[1]
T42B4 004:101.511 - 0.735ms returns 1 (0x1)
T42B4 004:101.524 JLINK_ReadMemU32(0xE0002FE8, 0x1 Items)
T42B4 004:101.536   CPU_ReadMem(4 bytes @ 0xE0002FE8)
T42B4 004:102.174   Data:  0B 00 00 00
T42B4 004:102.189   Debug reg: FP_PID[2]
T42B4 004:102.201 - 0.676ms returns 1 (0x1)
T42B4 004:102.214 JLINK_ReadMemU32(0xE0002FEC, 0x1 Items)
T42B4 004:102.226   CPU_ReadMem(4 bytes @ 0xE0002FEC)
T42B4 004:102.999   Data:  00 00 00 00
T42B4 004:103.013   Debug reg: FP_PID[3]
T42B4 004:103.025 - 0.811ms returns 1 (0x1)
T42B4 004:103.038 JLINK_ReadMemU32(0xE0002FF0, 0x1 Items)
T42B4 004:103.051   CPU_ReadMem(4 bytes @ 0xE0002FF0)
T42B4 004:103.729   Data:  0D 00 00 00
T42B4 004:103.743   Debug reg: FP_CID[0]
T42B4 004:103.755 - 0.716ms returns 1 (0x1)
T42B4 004:103.768 JLINK_ReadMemU32(0xE0002FF4, 0x1 Items)
T42B4 004:103.781   CPU_ReadMem(4 bytes @ 0xE0002FF4)
T42B4 004:104.512   Data:  E0 00 00 00
T42B4 004:104.527   Debug reg: FP_CID[1]
T42B4 004:104.538 - 0.770ms returns 1 (0x1)
T42B4 004:104.552 JLINK_ReadMemU32(0xE0002FF8, 0x1 Items)
T42B4 004:104.564   CPU_ReadMem(4 bytes @ 0xE0002FF8)
T42B4 004:105.193   Data:  05 00 00 00
T42B4 004:105.208   Debug reg: FP_CID[2]
T42B4 004:105.220 - 0.668ms returns 1 (0x1)
T42B4 004:105.233 JLINK_ReadMemU32(0xE0002FFC, 0x1 Items)
T42B4 004:105.246   CPU_ReadMem(4 bytes @ 0xE0002FFC)
T42B4 004:105.977   Data:  B1 00 00 00
T42B4 004:105.991   Debug reg: FP_CID[3]
T42B4 004:106.003 - 0.769ms returns 1 (0x1)
T42B4 004:108.014 JLINK_ReadMemU32(0x40240000, 0x1 Items)
T42B4 004:108.048   CPU_ReadMem(4 bytes @ 0x40240000)
T42B4 004:108.785   Data:  00 00 01 01
T42B4 004:108.803 - 0.789ms returns 1 (0x1)
T42B4 004:121.185 JLINK_GetSpeed()
T42B4 004:121.224 - 0.039ms returns 1000
T42B4 004:121.238 JLINK_SetMaxSpeed()
T42B4 004:121.528 - 0.289ms 
T42B4 004:121.587 JLINK_BeginDownload(Flags = 0x00000003)
T42B4 004:121.603 - 0.015ms 
T42B4 004:493.694 JLINK_WriteMem(0x28000800, 0x290C Bytes, ...)
T42B4 004:493.747   Data:  00 00 02 28 E1 27 00 28 F5 29 00 28 F1 28 00 28 ...
T42B4 004:493.949    -- Need to split memory access
T42B4 004:493.972    -- #0: 0x28000800, 0x00000400 bytes
T42B4 004:493.993   CPU_WriteMem(1024 bytes @ 0x28000800)
T42B4 004:500.785    -- #1: 0x28000C00, 0x0000250C bytes
T42B4 004:500.858   CPU_WriteMem(9484 bytes @ 0x28000C00)
T42B4 004:559.370 - 65.675ms returns 0x290C
T42B4 004:559.595 JLINK_WriteMem(0x28003280, 0x128 Bytes, ...)
T42B4 004:559.647   Data:  F0 02 FF 09 24 00 28 04 F1 FF 04 F1 FF 04 F1 FF ...
T42B4 004:559.706   CPU_WriteMem(296 bytes @ 0x28003280)
T42B4 004:562.334 - 2.739ms returns 0x128
T42B4 004:562.455 JLINK_WriteU16(0x280033A8, 0x00000000)
T42B4 004:562.512   CPU_WriteMem(2 bytes @ 0x280033A8)
T42B4 004:563.269 - 0.813ms returns 0 (0x00000000)
T42B4 004:563.402 JLINK_EndDownload()
T42B4 004:563.449 - 0.047ms returns 0 (0x0)
T42B4 004:563.511 JLINK_ReadMemU32(0x28000800, 0x800 Items)
T42B4 004:563.561   CPU_ReadMem(1024 bytes @ 0x28000800)
T42B4 004:570.740   CPU_ReadMem(7168 bytes @ 0x28000C00)
T42B4 004:616.649    -- Updating C cache (7168 bytes @ 0x28000C00)
T42B4 004:616.793    -- Read from C cache (7168 bytes @ 0x28000C00)
T42B4 004:616.839   Data:  00 00 02 28 E1 27 00 28 F5 29 00 28 F1 28 00 28 ...
T42B4 004:616.881 - 53.370ms returns 2048 (0x800)
T42B4 004:616.961 JLINK_ReadMemU32(0x28002800, 0x243 Items)
T42B4 004:617.022   CPU_ReadMem(2368 bytes @ 0x28002800)
T42B4 004:632.733    -- Updating C cache (2368 bytes @ 0x28002800)
T42B4 004:632.882    -- Read from C cache (2316 bytes @ 0x28002800)
T42B4 004:632.927   Data:  0C 49 0A 68 02 43 0A 60 00 20 00 21 0D 4A 03 C2 ...
T42B4 004:632.969 - 16.008ms returns 579 (0x243)
T42B4 004:633.094 JLINK_ReadMemU32(0x28003280, 0x4A Items)
T42B4 004:633.153   CPU_ReadMem(320 bytes @ 0x28003280)
T42B4 004:636.055    -- Updating C cache (320 bytes @ 0x28003280)
T42B4 004:636.150    -- Read from C cache (296 bytes @ 0x28003280)
T42B4 004:636.193   Data:  F0 02 FF 09 24 00 28 04 F1 FF 04 F1 FF 04 F1 FF ...
T42B4 004:636.233 - 3.138ms returns 74 (0x4A)
T42B4 004:636.317 JLINK_ReadMemU16(0x280033A8, 0x1 Items)
T42B4 004:636.367    -- Read from C cache (2 bytes @ 0x280033A8)
T42B4 004:636.409   Data:  00 00
T42B4 004:636.454 - 0.137ms returns 1 (0x1)
T42B4 004:646.934 JLINK_CORESIGHT_WriteAPDPReg(DP reg 0x02, 0x01000000)
T42B4 004:647.360 - 0.425ms returns 0
T42B4 004:647.459 JLINK_CORESIGHT_ReadAPDPReg(AP reg 0x00)
T42B4 004:647.941   Value=0x03800052
T42B4 004:647.960 - 0.501ms returns 0
T42B4 004:647.973 JLINK_CORESIGHT_WriteAPDPReg(AP reg 0x00, 0x03800042)
T42B4 004:648.242 - 0.268ms returns 0
T42B4 004:648.258 JLINK_CORESIGHT_WriteAPDPReg(AP reg 0x01, 0x17000000)
T42B4 004:648.581 - 0.322ms returns 0
T42B4 004:648.616 JLINK_CORESIGHT_ReadAPDPReg(AP reg 0x03)
T42B4 004:648.916   Value=0xE91A12FF
T42B4 004:648.931 - 0.315ms returns 0
T42B4 004:648.983 JLINK_CORESIGHT_WriteAPDPReg(DP reg 0x02, 0x01000000)
T42B4 004:649.245 - 0.261ms returns 0
T42B4 004:649.268 JLINK_CORESIGHT_ReadAPDPReg(AP reg 0x00)
T42B4 004:649.727   Value=0x03800042
T42B4 004:649.758 - 0.489ms returns 0
T42B4 004:649.772 JLINK_CORESIGHT_WriteAPDPReg(AP reg 0x01, 0xF0000FEC)
T42B4 004:650.120 - 0.347ms returns 0
T42B4 004:650.153 JLINK_CORESIGHT_ReadAPDPReg(AP reg 0x03)
T42B4 004:650.460   Value=0x00000020
T42B4 004:650.482 - 0.329ms returns 0
T42B4 004:650.537 JLINK_CORESIGHT_WriteAPDPReg(DP reg 0x02, 0x01000000)
T42B4 004:650.749 - 0.212ms returns 0
T42B4 004:650.766 JLINK_CORESIGHT_ReadAPDPReg(AP reg 0x00)
T42B4 004:651.157   Value=0x03800042
T42B4 004:651.173 - 0.407ms returns 0
T42B4 004:651.186 JLINK_CORESIGHT_WriteAPDPReg(AP reg 0x01, 0x17002004)
T42B4 004:651.525 - 0.339ms returns 0
T42B4 004:651.541 JLINK_CORESIGHT_ReadAPDPReg(AP reg 0x03)
T42B4 004:651.933   Value=0x23018001
T42B4 004:651.948 - 0.407ms returns 0
T42B4 004:651.973 JLINK_CORESIGHT_WriteAPDPReg(DP reg 0x02, 0x01000000)
T42B4 004:652.339 - 0.366ms returns 0
T42B4 004:652.355 JLINK_CORESIGHT_ReadAPDPReg(AP reg 0x00)
T42B4 004:652.657   Value=0x03800042
T42B4 004:652.673 - 0.317ms returns 0
T42B4 004:652.685 JLINK_CORESIGHT_WriteAPDPReg(AP reg 0x01, 0x17007DF8)
T42B4 004:653.001 - 0.315ms returns 0
T42B4 004:653.015 JLINK_CORESIGHT_ReadAPDPReg(AP reg 0x03)
T42B4 004:653.397   Value=0x00000243
T42B4 004:653.411 - 0.395ms returns 0
T42B4 004:653.444 JLINK_CORESIGHT_WriteAPDPReg(DP reg 0x02, 0x01000000)
T42B4 004:653.743 - 0.299ms returns 0
T42B4 004:653.759 JLINK_CORESIGHT_ReadAPDPReg(AP reg 0x00)
T42B4 004:654.147   Value=0x03800042
T42B4 004:654.161 - 0.401ms returns 0
T42B4 004:654.173 JLINK_CORESIGHT_WriteAPDPReg(AP reg 0x01, 0x402020C4)
T42B4 004:654.497 - 0.324ms returns 0
T42B4 004:654.512 JLINK_CORESIGHT_ReadAPDPReg(AP reg 0x03)
T42B4 004:654.897   Value=0x00000002
T42B4 004:654.911 - 0.399ms returns 0
T42B4 004:654.947 JLINK_CORESIGHT_WriteAPDPReg(DP reg 0x02, 0x01000000)
T42B4 004:655.271 - 0.323ms returns 0
T42B4 004:655.286 JLINK_CORESIGHT_ReadAPDPReg(AP reg 0x00)
T42B4 004:655.657   Value=0x03800042
T42B4 004:655.671 - 0.384ms returns 0
T42B4 004:655.683 JLINK_CORESIGHT_WriteAPDPReg(AP reg 0x01, 0x17002018)
T42B4 004:656.062 - 0.378ms returns 0
T42B4 004:656.077 JLINK_CORESIGHT_ReadAPDPReg(AP reg 0x03)
T42B4 004:656.415   Value=0x0000022A
T42B4 004:656.430 - 0.352ms returns 0
T42B4 004:656.487 JLINK_CORESIGHT_WriteAPDPReg(DP reg 0x02, 0x01000000)
T42B4 004:656.813 - 0.326ms returns 0
T42B4 004:656.829 JLINK_CORESIGHT_ReadAPDPReg(AP reg 0x00)
T42B4 004:657.165   Value=0x03800042
T42B4 004:657.179 - 0.350ms returns 0
T42B4 004:657.192 JLINK_CORESIGHT_WriteAPDPReg(AP reg 0x01, 0xF0000FE0)
T42B4 004:657.500 - 0.308ms returns 0
T42B4 004:657.515 JLINK_CORESIGHT_ReadAPDPReg(AP reg 0x03)
T42B4 004:657.896   Value=0x00000007
T42B4 004:657.910 - 0.395ms returns 0
T42B4 004:657.933 JLINK_CORESIGHT_WriteAPDPReg(DP reg 0x02, 0x01000000)
T42B4 004:658.248 - 0.314ms returns 0
T42B4 004:658.291 JLINK_CORESIGHT_ReadAPDPReg(AP reg 0x00)
T42B4 004:658.661   Value=0x03800042
T42B4 004:658.690 - 0.399ms returns 0
T42B4 004:658.704 JLINK_CORESIGHT_WriteAPDPReg(AP reg 0x01, 0xF0000FE4)
T42B4 004:658.998 - 0.293ms returns 0
T42B4 004:659.031 JLINK_CORESIGHT_ReadAPDPReg(AP reg 0x03)
T42B4 004:659.339   Value=0x00000041
T42B4 004:659.361 - 0.330ms returns 0
T42B4 004:659.489 JLINK_CORESIGHT_WriteAPDPReg(DP reg 0x02, 0x01000000)
T42B4 004:659.744 - 0.254ms returns 0
T42B4 004:659.761 JLINK_CORESIGHT_ReadAPDPReg(AP reg 0x00)
T42B4 004:660.118   Value=0x03800042
T42B4 004:660.132 - 0.371ms returns 0
T42B4 004:660.145 JLINK_CORESIGHT_WriteAPDPReg(AP reg 0x01, 0xF0000FE8)
T42B4 004:660.371 - 0.226ms returns 0
T42B4 004:660.386 JLINK_CORESIGHT_ReadAPDPReg(AP reg 0x03)
T42B4 004:660.739   Value=0x0000001B
T42B4 004:660.753 - 0.366ms returns 0
T42B4 004:660.922 JLINK_SetResetType(JLINKARM_CM3_RESET_TYPE_NORMAL)
T42B4 004:660.940 - 0.017ms returns JLINKARM_CM3_RESET_TYPE_NORMAL
T42B4 004:660.955 JLINK_ExecCommand("SetResetPulseLen = 200", ...). 
T42B4 004:660.969 - 0.001ms returns 0xC8
T42B4 004:660.982 JLINK_SetResetDelay(0)
T42B4 004:660.994 - 0.011ms 
T42B4 004:661.008 JLINK_ResetPullsRESET(ON)
T42B4 004:661.020 - 0.011ms 
T42B4 004:661.032 JLINK_Reset()
T42B4 004:661.055   CPU_ReadMem(4 bytes @ 0x28003280)
T42B4 004:661.441   CPU_WriteMem(4 bytes @ 0x28003280)
T42B4 004:661.970   JLINK_GetResetTypeDesc
T42B4 004:661.985   - 0.014ms 
T42B4 004:662.023   Reset type: NORMAL (https://wiki.segger.com/J-Link_Reset_Strategies)
T42B4 004:662.037   CPU_WriteMem(4 bytes @ 0xE000EDF0)
T42B4 004:662.552   CPU_WriteMem(4 bytes @ 0xE000EDFC)
T42B4 004:663.011   Reset: Halt core after reset via DEMCR.VC_CORERESET.
T42B4 004:663.600   Reset: Reset device via AIRCR.SYSRESETREQ.
T42B4 004:663.616   CPU_WriteMem(4 bytes @ 0xE000ED0C)
T42B4 004:719.456   CPU_ReadMem(4 bytes @ 0xE000EDF0)
T42B4 004:720.438   CPU_ReadMem(4 bytes @ 0xE000EDF0)
T42B4 004:722.025   Core did not halt after reset, halting it manually.
T42B4 004:722.117   CPU is running
T42B4 004:722.161   CPU_WriteMem(4 bytes @ 0xE000EDF0)
T42B4 004:722.708   CPU is running
T42B4 004:722.760   CPU_WriteMem(4 bytes @ 0xE000EDFC)
T42B4 004:728.664   CPU_ReadMem(4 bytes @ 0xE000EDF0)
T42B4 004:732.554   CPU_WriteMem(4 bytes @ 0xE0002000)
T42B4 004:733.043   CPU_ReadMem(4 bytes @ 0xE000EDFC)
T42B4 004:733.480   CPU_ReadMem(4 bytes @ 0xE0001000)
T42B4 004:733.959   CPU_WriteMem(4 bytes @ 0xE0001000)
T42B4 004:734.419 - 73.386ms 
T42B4 004:734.490 JLINK_GetHWStatus(...)
T42B4 004:734.741 - 0.251ms returns 0
T42B4 004:734.757 JLINK_IsHalted()
T42B4 004:734.769 - 0.012ms returns TRUE
T42B4 004:734.782 JLINK_ReadMemU32(0xE000EDFC, 0x1 Items)
T42B4 004:734.801   CPU_ReadMem(4 bytes @ 0xE000EDFC)
T42B4 004:735.228   Data:  00 00 00 01
T42B4 004:735.270   Debug reg: DEMCR
T42B4 004:735.288 - 0.505ms returns 1 (0x1)
T42B4 004:735.315 JLINK_BeginDownload(Flags = 0x00000001)
T42B4 004:735.332 - 0.017ms 
T42B4 004:735.347 JLINK_WriteU32(0xE000EDFC, 0x01000000)
T42B4 004:735.359   Debug reg: DEMCR
T42B4 004:735.538 - 0.191ms returns 0 (0x00000000)
T42B4 004:735.556 JLINK_EndDownload()
T42B4 004:735.568 - 0.012ms returns 0 (0x0)
T42B4 004:735.582 JLINK_ReadMemU32(0xE0001004, 0x1 Items)
T42B4 004:735.596   CPU_ReadMem(4 bytes @ 0xE0001004)
T42B4 004:736.086   Data:  00 00 00 00
T42B4 004:736.109   Debug reg: DWT_CYCCNT
T42B4 004:736.122 - 0.540ms returns 1 (0x1)
T42B4 004:736.147 JLINK_ReadMemU32(0x28000800, 0x1 Items)
T42B4 004:736.162   CPU_ReadMem(4 bytes @ 0x28000800)
T42B4 004:736.544   Data:  00 00 02 28
T42B4 004:736.559 - 0.412ms returns 1 (0x1)
T42B4 004:736.573 JLINK_ReadMemU32(0x28000804, 0x1 Items)
T42B4 004:736.585   CPU_ReadMem(4 bytes @ 0x28000804)
T42B4 004:736.997   Data:  E1 27 00 28
T42B4 004:737.012 - 0.439ms returns 1 (0x1)
T42B4 004:737.031 JLINK_ReadRegs(NumRegs = 1)
T42B4 004:737.045     MSP (17) = 0x280BF7E8        
T42B4 004:737.057 - 0.026ms returns 0x00
T42B4 004:737.069 JLINK_ReadRegs(NumRegs = 1)
T42B4 004:737.081     PSP (18) = 0x2801FFF8        
T42B4 004:737.093 - 0.023ms returns 0x00
T42B4 004:737.105 JLINK_ReadRegs(NumRegs = 1)
T42B4 004:737.117     CFBP (20) = 0x00              
T42B4 004:737.129 - 0.024ms returns 0x00
T42B4 004:737.142 JLINK_WriteReg(MSP, 0x28020000)
T42B4 004:737.157 - 0.015ms returns 0
T42B4 004:737.171 JLINK_ReadRegs(NumRegs = 1)
T42B4 004:737.183     R15 (PC) (15) = 0x17004316        
T42B4 004:737.195 - 0.024ms returns 0x00
T42B4 004:737.207 JLINK_WriteReg(R15 (PC), 0x280027E0)
T42B4 004:737.219 - 0.011ms returns 0
T42B4 004:737.233 JLINK_ReadRegs(NumRegs = 1)
T42B4 004:737.247     R0 (0)  = 0x16F6D45         
T42B4 004:737.259 - 0.026ms returns 0x00
T42B4 004:737.271 JLINK_ReadRegs(NumRegs = 1)
T42B4 004:737.282     R1 (1)  = 0xF4240           
T42B4 004:737.294 - 0.023ms returns 0x00
T42B4 004:737.306 JLINK_ReadRegs(NumRegs = 1)
T42B4 004:737.317     R2 (2)  = 0x243             
T42B4 004:737.329 - 0.023ms returns 0x00
T42B4 004:737.341 JLINK_ReadRegs(NumRegs = 1)
T42B4 004:737.352     R3 (3)  = 0x20002           
T42B4 004:737.363 - 0.022ms returns 0x00
T42B4 004:737.376 JLINK_ReadRegs(NumRegs = 1)
T42B4 004:737.387     R4 (4)  = 0xF1000107        
T42B4 004:737.399 - 0.022ms returns 0x00
T42B4 004:737.411 JLINK_ReadRegs(NumRegs = 1)
T42B4 004:737.423     R5 (5)  = 0xFFFF0000        
T42B4 004:737.434 - 0.023ms returns 0x00
T42B4 004:737.446 JLINK_ReadRegs(NumRegs = 1)
T42B4 004:737.458     R6 (6)  = 0x02              
T42B4 004:737.469 - 0.023ms returns 0x00
T42B4 004:737.481 JLINK_ReadRegs(NumRegs = 1)
T42B4 004:737.493     R7 (7)  = 0x17007C00        
T42B4 004:737.505 - 0.023ms returns 0x00
T42B4 004:737.517 JLINK_ReadRegs(NumRegs = 1)
T42B4 004:737.529     R8 (8)  = 0xD3DD8DD1        
T42B4 004:737.541 - 0.024ms returns 0x00
T42B4 004:737.553 JLINK_ReadRegs(NumRegs = 1)
T42B4 004:737.565     R9 (9)  = 0x91FB9E6C        
T42B4 004:737.576 - 0.022ms returns 0x00
T42B4 004:737.589 JLINK_ReadRegs(NumRegs = 1)
T42B4 004:737.601     R10 (10) = 0xD7063F35        
T42B4 004:737.612 - 0.023ms returns 0x00
T42B4 004:737.624 JLINK_ReadRegs(NumRegs = 1)
T42B4 004:737.636     R11 (11) = 0xF1D78822        
T42B4 004:737.647 - 0.023ms returns 0x00
T42B4 004:737.659 JLINK_ReadRegs(NumRegs = 1)
T42B4 004:737.671     R12 (12) = 0x280BF334        
T42B4 004:737.682 - 0.023ms returns 0x00
T42B4 004:737.694 JLINK_ReadRegs(NumRegs = 1)
T42B4 004:737.706     MSP (17) = 0x28020000        
T42B4 004:737.764 - 0.069ms returns 0x00
T42B4 004:737.777 JLINK_ReadRegs(NumRegs = 1)
T42B4 004:737.789     PSP (18) = 0x2801FFF8        
T42B4 004:737.801 - 0.023ms returns 0x00
T42B4 004:737.813 JLINK_ReadRegs(NumRegs = 1)
T42B4 004:737.825     R14 (14) = 0x1700419B        
T42B4 004:737.836 - 0.023ms returns 0x00
T42B4 004:737.847 JLINK_ReadRegs(NumRegs = 1)
T42B4 004:737.859     R15 (PC) (15) = 0x280027E0        
T42B4 004:737.871 - 0.023ms returns 0x00
T42B4 004:737.883 JLINK_ReadRegs(NumRegs = 1)
T42B4 004:737.894     XPSR (16) = 0x21000000        
T42B4 004:737.905 - 0.023ms returns 0x00
T42B4 004:737.917 JLINK_ReadRegs(NumRegs = 1)
T42B4 004:737.929     CFBP (20) = 0x00              
T42B4 004:737.941 - 0.023ms returns 0x00
T42B4 004:737.954 JLINK_WriteReg(XPSR, 0x21000000)
T42B4 004:737.966 - 0.011ms returns 0
T42B4 004:737.989 JLINK_ReadRegs(NumRegs = 1)
T42B4 004:738.001     R15 (PC) (15) = 0x280027E0        
T42B4 004:738.013 - 0.024ms returns 0x00
T42B4 004:738.304 JLINK_SetBPEx(Addr = 0x280028D0, Type = 0xFFFFFFF2)
T42B4 004:738.329   CPU_ReadMem(2 bytes @ 0x280028D0)
T42B4 004:738.775 - 0.471ms returns 0x00000001
T42B4 004:738.796 JLINK_WriteVectorCatch(0x00000000)
T42B4 004:738.809 - 0.013ms returns 0
T3640 004:761.866 JLINK_ReadMemU16(0x280027E0, 0x1 Items)
T3640 004:761.947   CPU_ReadMem(64 bytes @ 0x280027C0)
T3640 004:762.965    -- Updating C cache (64 bytes @ 0x280027C0)
T3640 004:762.990    -- Read from C cache (2 bytes @ 0x280027E0)
T3640 004:763.005   Data:  72 B6
T3640 004:763.017 - 1.154ms returns 1 (0x1)
T3640 004:763.050 JLINK_WriteVectorCatch(0x00000000)
T3640 004:763.066 - 0.015ms returns 0
T3640 004:763.085 JLINK_ReadMemU32(0xE000EDFC, 0x1 Items)
T3640 004:763.100   Data:  00 00 00 01
T3640 004:763.113   Debug reg: DEMCR
T3640 004:763.125 - 0.039ms returns 1 (0x1)
T3640 004:763.139 JLINK_BeginDownload(Flags = 0x00000001)
T3640 004:763.151 - 0.012ms 
T3640 004:763.165 JLINK_WriteU32(0xE000EDFC, 0x01000000)
T3640 004:763.177   Debug reg: DEMCR
T3640 004:763.191   CPU_WriteMem(2 bytes @ 0x280028D0)
T3640 004:763.683 - 0.518ms returns 0 (0x00000000)
T3640 004:763.703 JLINK_EndDownload()
T3640 004:763.715 - 0.012ms returns 0 (0x0)
T3640 004:763.727 JLINK_ReadMemU32(0xE0002000, 0x1 Items)
T3640 004:763.741   CPU_ReadMem(4 bytes @ 0xE0002000)
T3640 004:764.137   Data:  41 00 00 00
T3640 004:764.176 - 0.448ms returns 1 (0x1)
T3640 004:764.189 JLINK_ReadMemU32(0xE0002000, 0x1 Items)
T3640 004:764.203   CPU_ReadMem(4 bytes @ 0xE0002000)
T3640 004:764.588   Data:  41 00 00 00
T3640 004:764.603 - 0.413ms returns 1 (0x1)
T3640 004:764.617 JLINK_ReadMemU32(0xE0001000, 0x1 Items)
T3640 004:764.630   CPU_ReadMem(4 bytes @ 0xE0001000)
T3640 004:765.056   Data:  00 00 00 20
T3640 004:765.093   Debug reg: DWT_CTRL
T3640 004:765.105 - 0.488ms returns 1 (0x1)
T3640 004:765.123 JLINK_ReadMemU32(0xE000EDFC, 0x1 Items)
T3640 004:765.139   Data:  00 00 00 01
T3640 004:765.151   Debug reg: DEMCR
T3640 004:765.162 - 0.040ms returns 1 (0x1)
T3640 004:765.176 JLINK_BeginDownload(Flags = 0x00000001)
T3640 004:765.188 - 0.012ms 
T3640 004:765.201 JLINK_WriteU32(0xE000EDFC, 0x01000000)
T3640 004:765.213   Debug reg: DEMCR
T3640 004:765.228 - 0.026ms returns 0 (0x00000000)
T3640 004:765.241 JLINK_EndDownload()
T3640 004:765.253 - 0.011ms returns 0 (0x0)
T3640 004:765.266 JLINK_BeginDownload(Flags = 0x00000001)
T3640 004:765.277 - 0.011ms 
T3640 004:765.290 JLINK_WriteU32(0xE0001028, 0x00000000)
T3640 004:765.302   Debug reg: DWT_FUNC[0]
T3640 004:765.315 - 0.025ms returns 0 (0x00000000)
T3640 004:765.328 JLINK_EndDownload()
T3640 004:765.340 - 0.011ms returns 0 (0x0)
T3640 004:765.352 JLINK_BeginDownload(Flags = 0x00000001)
T3640 004:765.364 - 0.011ms 
T3640 004:765.376 JLINK_WriteU32(0xE0001038, 0x00000000)
T3640 004:765.388   Debug reg: DWT_FUNC[1]
T3640 004:765.401 - 0.024ms returns 0 (0x00000000)
T3640 004:765.413 JLINK_EndDownload()
T3640 004:765.426 - 0.012ms returns 0 (0x0)
T3640 004:765.450 JLINK_Go()
T3640 004:765.519   CPU_ReadMem(4 bytes @ 0xE0001000)
T3640 004:765.943   CPU_WriteMem(4 bytes @ 0xE0001000)
T3640 004:766.450   CPU_WriteMem(4 bytes @ 0xE0001028)
T3640 004:766.482   CPU_WriteMem(4 bytes @ 0xE0001038)
T3640 004:766.495   CPU_WriteMem(4 bytes @ 0xE0002008)
T3640 004:766.507   CPU_WriteMem(4 bytes @ 0xE000200C)
T3640 004:766.519   CPU_WriteMem(4 bytes @ 0xE0002010)
T3640 004:766.531   CPU_WriteMem(4 bytes @ 0xE0002014)
T3640 004:769.291   Memory map 'after startup completion point' is active
T3640 004:769.334 - 3.882ms 
T3640 004:771.406 JLINK_GetHWStatus(...)
T3640 004:771.688 - 0.281ms returns 0
T3640 004:771.721 JLINK_IsHalted()
T3640 004:775.166   CPU_ReadMem(2 bytes @ 0x280028D0)
T3640 004:775.674 - 3.952ms returns TRUE
T3640 004:775.745 JLINK_ReadRegs(NumRegs = 1)
T3640 004:775.764     R15 (PC) (15) = 0x280028D0        
T3640 004:775.778 - 0.032ms returns 0x00
T3640 004:775.794 JLINK_ReadMemU16(0x280028D0, 0x1 Items)
T3640 004:775.809    -- Merging existing BP[0]: 0xB580 @ 0x280028D0
T3640 004:775.821    -- Merging existing BP[0]: 0xB580 @ 0x280028D0
T3640 004:775.834   Data:  80 B5
T3640 004:775.846 - 0.051ms returns 1 (0x1)
T3640 004:775.861 JLINK_ReadMemU32(0xE000EDFC, 0x1 Items)
T3640 004:775.880   Data:  00 00 00 01
T3640 004:775.893   Debug reg: DEMCR
T3640 004:775.904 - 0.042ms returns 1 (0x1)
T3640 004:775.918 JLINK_BeginDownload(Flags = 0x00000001)
T3640 004:775.930 - 0.012ms 
T3640 004:775.943 JLINK_WriteU32(0xE000EDFC, 0x01000000)
T3640 004:775.955   Debug reg: DEMCR
T3640 004:775.971 - 0.027ms returns 0 (0x00000000)
T3640 004:775.985 JLINK_EndDownload()
T3640 004:775.998 - 0.012ms returns 0 (0x0)
T3640 004:776.012 JLINK_WriteVectorCatch(0x00000000)
T3640 004:776.024 - 0.012ms returns 0
T3640 004:776.037 JLINK_BeginDownload(Flags = 0x00000001)
T3640 004:776.049 - 0.011ms 
T3640 004:776.061 JLINK_WriteU32(0xE0001028, 0x00000000)
T3640 004:776.073   Debug reg: DWT_FUNC[0]
T3640 004:776.087 - 0.025ms returns 0 (0x00000000)
T3640 004:776.100 JLINK_EndDownload()
T3640 004:776.113 - 0.012ms returns 0 (0x0)
T3640 004:776.126 JLINK_BeginDownload(Flags = 0x00000001)
T3640 004:776.138 - 0.012ms 
T3640 004:776.151 JLINK_WriteU32(0xE0001038, 0x00000000)
T3640 004:776.163   Debug reg: DWT_FUNC[1]
T3640 004:776.176 - 0.025ms returns 0 (0x00000000)
T3640 004:776.188 JLINK_EndDownload()
T3640 004:776.199 - 0.011ms returns 0 (0x0)
T3640 004:776.364 JLINK_ReadMemU32(0xE0001004, 0x1 Items)
T3640 004:776.385   CPU_ReadMem(4 bytes @ 0xE0001004)
T3640 004:776.860   Data:  00 00 00 00
T3640 004:776.888   Debug reg: DWT_CYCCNT
T3640 004:776.901 - 0.537ms returns 1 (0x1)
T3640 004:776.944 JLINK_ClrBPEx(BPHandle = 0x00000001)
T3640 004:776.959 - 0.014ms returns 0x00
T3640 004:776.974 JLINK_WriteVectorCatch(0x00000000)
T3640 004:776.988 - 0.013ms returns 0
T3640 004:777.067 JLINK_ReadRegs(NumRegs = 1)
T3640 004:777.101     R14 (14) = 0x2800292B        
T3640 004:777.113 - 0.047ms returns 0x00
T3640 004:777.129 JLINK_ReadRegs(NumRegs = 1)
T3640 004:777.141     R0 (0)  = 0x00              
T3640 004:777.153 - 0.024ms returns 0x00
T3640 004:777.166 JLINK_ReadRegs(NumRegs = 1)
T3640 004:777.178     R1 (1)  = 0xFEF5EDA5        
T3640 004:777.189 - 0.023ms returns 0x00
T3640 004:777.202 JLINK_ReadRegs(NumRegs = 1)
T3640 004:777.213     R2 (2)  = 0x2800329A        
T3640 004:777.225 - 0.023ms returns 0x00
T3640 004:777.237 JLINK_ReadRegs(NumRegs = 1)
T3640 004:777.249     R3 (3)  = 0x86              
T3640 004:777.261 - 0.023ms returns 0x00
T3640 004:777.272 JLINK_ReadRegs(NumRegs = 1)
T3640 004:777.284     R4 (4)  = 0xF1000107        
T3640 004:777.296 - 0.023ms returns 0x00
T3640 004:777.307 JLINK_ReadRegs(NumRegs = 1)
T3640 004:777.319     R5 (5)  = 0xFFFF0000        
T3640 004:777.330 - 0.022ms returns 0x00
T3640 004:777.342 JLINK_ReadRegs(NumRegs = 1)
T3640 004:777.353     R6 (6)  = 0x02              
T3640 004:777.368 - 0.026ms returns 0x00
T3640 004:777.381 JLINK_ReadRegs(NumRegs = 1)
T3640 004:777.393     R7 (7)  = 0x28002979        
T3640 004:777.452 - 0.070ms returns 0x00
T3640 004:777.468 JLINK_ReadRegs(NumRegs = 1)
T3640 004:777.481     R8 (8)  = 0xD3DD8DD1        
T3640 004:777.492 - 0.023ms returns 0x00
T3640 004:777.503 JLINK_ReadRegs(NumRegs = 1)
T3640 004:777.515     R9 (9)  = 0x91FB9E6C        
T3640 004:777.526 - 0.022ms returns 0x00
T3640 004:777.538 JLINK_ReadRegs(NumRegs = 1)
T3640 004:777.550     R10 (10) = 0xD7063F35        
T3640 004:777.561 - 0.023ms returns 0x00
T3640 004:777.573 JLINK_ReadRegs(NumRegs = 1)
T3640 004:777.585     R11 (11) = 0xF1D78822        
T3640 004:777.596 - 0.022ms returns 0x00
T3640 004:777.608 JLINK_ReadRegs(NumRegs = 1)
T3640 004:777.619     R12 (12) = 0x280BF334        
T3640 004:777.631 - 0.023ms returns 0x00
T3640 004:777.643 JLINK_ReadRegs(NumRegs = 1)
T3640 004:777.655     MSP (17) = 0x2801FFF8        
T3640 004:777.666 - 0.023ms returns 0x00
T3640 004:777.678 JLINK_ReadRegs(NumRegs = 1)
T3640 004:777.691     PSP (18) = 0x2801FFF8        
T3640 004:777.702 - 0.023ms returns 0x00
T3640 004:777.714 JLINK_ReadRegs(NumRegs = 1)
T3640 004:777.726     R14 (14) = 0x2800292B        
T3640 004:777.737 - 0.022ms returns 0x00
T3640 004:777.749 JLINK_ReadRegs(NumRegs = 1)
T3640 004:777.761     R15 (PC) (15) = 0x280028D0        
T3640 004:777.773 - 0.023ms returns 0x00
T3640 004:777.785 JLINK_ReadRegs(NumRegs = 1)
T3640 004:777.798     XPSR (16) = 0x61000000        
T3640 004:777.810 - 0.024ms returns 0x00
T3640 004:777.822 JLINK_ReadRegs(NumRegs = 1)
T3640 004:777.833     CFBP (20) = 0x01              
T3640 004:777.845 - 0.022ms returns 0x00
T42B4 007:819.360 JLINK_ReadMemU32(0x28002800, 0x80 Items)
T42B4 007:819.429   CPU_ReadMem(512 bytes @ 0x28002800)
T42B4 007:823.073    -- Updating C cache (512 bytes @ 0x28002800)
T42B4 007:823.105    -- Read from C cache (512 bytes @ 0x28002800)
T42B4 007:823.119    -- Merging zombie BP[0]: 0xB580 @ 0x280028D0
T42B4 007:823.132   Data:  0C 49 0A 68 02 43 0A 60 00 20 00 21 0D 4A 03 C2 ...
T42B4 007:823.145 - 3.785ms returns 128 (0x80)
T3640 010:876.795 JLINK_SetBPEx(Addr = 0x280028D2, Type = 0xFFFFFFF2)
T3640 010:876.873   CPU_ReadMem(2 bytes @ 0x280028D2)
T3640 010:877.342 - 0.547ms returns 0x00000002
T3640 010:877.363 JLINK_WriteVectorCatch(0x00000000)
T3640 010:877.377 - 0.013ms returns 0
T3640 010:877.483 JLINK_ReadMemU16(0x280028D0, 0x1 Items)
T3640 010:877.526    -- Merging zombie BP[0]: 0xB580 @ 0x280028D0
T3640 010:877.539    -- Merging zombie BP[0]: 0xB580 @ 0x280028D0
T3640 010:877.551   Data:  80 B5
T3640 010:877.566 - 0.082ms returns 1 (0x1)
T3640 010:877.590 JLINK_WriteVectorCatch(0x00000000)
T3640 010:877.605 - 0.015ms returns 0
T3640 010:877.619 JLINK_ReadMemU32(0xE000EDFC, 0x1 Items)
T3640 010:877.635   Data:  00 00 00 01
T3640 010:877.646   Debug reg: DEMCR
T3640 010:877.658 - 0.039ms returns 1 (0x1)
T3640 010:877.672 JLINK_BeginDownload(Flags = 0x00000001)
T3640 010:877.685 - 0.012ms 
T3640 010:877.698 JLINK_WriteU32(0xE000EDFC, 0x01000000)
T3640 010:877.710   Debug reg: DEMCR
T3640 010:877.725   CPU_WriteMem(2 bytes @ 0x280028D2)
T3640 010:878.202 - 0.503ms returns 0 (0x00000000)
T3640 010:878.235 JLINK_EndDownload()
T3640 010:878.249 - 0.012ms returns 0 (0x0)
T3640 010:878.264 JLINK_BeginDownload(Flags = 0x00000001)
T3640 010:878.277 - 0.012ms 
T3640 010:878.291 JLINK_WriteU32(0xE0001028, 0x00000000)
T3640 010:878.303   Debug reg: DWT_FUNC[0]
T3640 010:878.320 - 0.029ms returns 0 (0x00000000)
T3640 010:878.333 JLINK_EndDownload()
T3640 010:878.345 - 0.011ms returns 0 (0x0)
T3640 010:878.358 JLINK_BeginDownload(Flags = 0x00000001)
T3640 010:878.369 - 0.011ms 
T3640 010:878.382 JLINK_WriteU32(0xE0001038, 0x00000000)
T3640 010:878.394   Debug reg: DWT_FUNC[1]
T3640 010:878.406 - 0.024ms returns 0 (0x00000000)
T3640 010:878.418 JLINK_EndDownload()
T3640 010:878.431 - 0.012ms returns 0 (0x0)
T3640 010:878.457 JLINK_Go()
T3640 010:878.978   CPU_ReadMem(2 bytes @ 0x280028D0)
T3640 010:879.422   CPU_WriteMem(2 bytes @ 0x280028D0)
T3640 010:879.899   CPU_ReadMem(4 bytes @ 0xE0001000)
T3640 010:880.330   CPU_WriteMem(4 bytes @ 0xE0001028)
T3640 010:880.400   CPU_WriteMem(4 bytes @ 0xE0001038)
T3640 010:881.567 - 3.109ms 
T3640 010:883.120 JLINK_GetHWStatus(...)
T3640 010:883.439 - 0.319ms returns 0
T3640 010:883.464 JLINK_IsHalted()
T3640 010:886.937   CPU_ReadMem(2 bytes @ 0x280028D2)
T3640 010:887.438 - 3.974ms returns TRUE
T3640 010:887.499 JLINK_ReadRegs(NumRegs = 1)
T3640 010:887.517     R15 (PC) (15) = 0x280028D2        
T3640 010:887.530 - 0.030ms returns 0x00
T3640 010:887.546 JLINK_ReadMemU16(0x280028D2, 0x1 Items)
T3640 010:887.560    -- Merging existing BP[0]: 0xB662 @ 0x280028D2
T3640 010:887.572    -- Merging existing BP[0]: 0xB662 @ 0x280028D2
T3640 010:887.586   Data:  62 B6
T3640 010:887.601 - 0.054ms returns 1 (0x1)
T3640 010:887.616 JLINK_ReadMemU32(0xE000EDFC, 0x1 Items)
T3640 010:887.631   Data:  00 00 00 01
T3640 010:887.644   Debug reg: DEMCR
T3640 010:887.656 - 0.040ms returns 1 (0x1)
T3640 010:887.671 JLINK_BeginDownload(Flags = 0x00000001)
T3640 010:887.684 - 0.012ms 
T3640 010:887.698 JLINK_WriteU32(0xE000EDFC, 0x01000000)
T3640 010:887.710   Debug reg: DEMCR
T3640 010:887.726 - 0.028ms returns 0 (0x00000000)
T3640 010:887.739 JLINK_EndDownload()
T3640 010:887.751 - 0.012ms returns 0 (0x0)
T3640 010:887.763 JLINK_WriteVectorCatch(0x00000000)
T3640 010:887.776 - 0.012ms returns 0
T3640 010:887.788 JLINK_BeginDownload(Flags = 0x00000001)
T3640 010:887.800 - 0.011ms 
T3640 010:887.812 JLINK_WriteU32(0xE0001028, 0x00000000)
T3640 010:887.824   Debug reg: DWT_FUNC[0]
T3640 010:887.837 - 0.024ms returns 0 (0x00000000)
T3640 010:887.850 JLINK_EndDownload()
T3640 010:887.862 - 0.011ms returns 0 (0x0)
T3640 010:887.874 JLINK_BeginDownload(Flags = 0x00000001)
T3640 010:887.886 - 0.011ms 
T3640 010:887.897 JLINK_WriteU32(0xE0001038, 0x00000000)
T3640 010:887.909   Debug reg: DWT_FUNC[1]
T3640 010:887.922 - 0.024ms returns 0 (0x00000000)
T3640 010:887.934 JLINK_EndDownload()
T3640 010:887.946 - 0.011ms returns 0 (0x0)
T3640 010:888.348 JLINK_ReadMemU32(0xE0001004, 0x1 Items)
T3640 010:888.390   CPU_ReadMem(4 bytes @ 0xE0001004)
T3640 010:888.747   Data:  00 00 00 00
T3640 010:888.764   Debug reg: DWT_CYCCNT
T3640 010:888.776 - 0.428ms returns 1 (0x1)
T3640 010:888.814 JLINK_ClrBPEx(BPHandle = 0x00000002)
T3640 010:888.829 - 0.014ms returns 0x00
T3640 010:888.843 JLINK_WriteVectorCatch(0x00000000)
T3640 010:888.856 - 0.013ms returns 0
T3640 010:888.901 JLINK_ReadRegs(NumRegs = 1)
T3640 010:888.914     R14 (14) = 0x2800292B        
T3640 010:888.926 - 0.025ms returns 0x00
T3640 010:888.941 JLINK_ReadRegs(NumRegs = 1)
T3640 010:888.953     R0 (0)  = 0x00              
T3640 010:888.964 - 0.023ms returns 0x00
T3640 010:888.976 JLINK_ReadRegs(NumRegs = 1)
T3640 010:888.988     R1 (1)  = 0xFEF5EDA5        
T3640 010:889.000 - 0.023ms returns 0x00
T3640 010:889.012 JLINK_ReadRegs(NumRegs = 1)
T3640 010:889.024     R2 (2)  = 0x2800329A        
T3640 010:889.035 - 0.023ms returns 0x00
T3640 010:889.047 JLINK_ReadRegs(NumRegs = 1)
T3640 010:889.059     R3 (3)  = 0x86              
T3640 010:889.070 - 0.023ms returns 0x00
T3640 010:889.083 JLINK_ReadRegs(NumRegs = 1)
T3640 010:889.094     R4 (4)  = 0xF1000107        
T3640 010:889.106 - 0.023ms returns 0x00
T3640 010:889.118 JLINK_ReadRegs(NumRegs = 1)
T3640 010:889.131     R5 (5)  = 0xFFFF0000        
T3640 010:889.142 - 0.023ms returns 0x00
T3640 010:889.155 JLINK_ReadRegs(NumRegs = 1)
T3640 010:889.166     R6 (6)  = 0x02              
T3640 010:889.178 - 0.023ms returns 0x00
T3640 010:889.190 JLINK_ReadRegs(NumRegs = 1)
T3640 010:889.202     R7 (7)  = 0x28002979        
T3640 010:889.214 - 0.023ms returns 0x00
T3640 010:889.281 JLINK_ReadRegs(NumRegs = 1)
T3640 010:889.330     R8 (8)  = 0xD3DD8DD1        
T3640 010:889.350 - 0.069ms returns 0x00
T3640 010:889.365 JLINK_ReadRegs(NumRegs = 1)
T3640 010:889.378     R9 (9)  = 0x91FB9E6C        
T3640 010:889.390 - 0.024ms returns 0x00
T3640 010:889.402 JLINK_ReadRegs(NumRegs = 1)
T3640 010:889.414     R10 (10) = 0xD7063F35        
T3640 010:889.426 - 0.023ms returns 0x00
T3640 010:889.446 JLINK_ReadRegs(NumRegs = 1)
T3640 010:889.458     R11 (11) = 0xF1D78822        
T3640 010:889.470 - 0.024ms returns 0x00
T3640 010:889.482 JLINK_ReadRegs(NumRegs = 1)
T3640 010:889.494     R12 (12) = 0x280BF334        
T3640 010:889.506 - 0.023ms returns 0x00
T3640 010:889.518 JLINK_ReadRegs(NumRegs = 1)
T3640 010:889.530     MSP (17) = 0x2801FFF0        
T3640 010:889.542 - 0.024ms returns 0x00
T3640 010:889.555 JLINK_ReadRegs(NumRegs = 1)
T3640 010:889.567     PSP (18) = 0x2801FFF8        
T3640 010:889.579 - 0.024ms returns 0x00
T3640 010:889.591 JLINK_ReadRegs(NumRegs = 1)
T3640 010:889.604     R14 (14) = 0x2800292B        
T3640 010:889.615 - 0.023ms returns 0x00
T3640 010:889.628 JLINK_ReadRegs(NumRegs = 1)
